<Qucs Dataset 0.0.15>
<indep x 10>
  +5.00000000000e+00
  +1.00000000000e+01
  +1.50000000000e+01
  +2.00000000000e+01
  +2.50000000000e+01
  +3.00000000000e+01
  +3.50000000000e+01
  +4.00000000000e+01
  +4.50000000000e+01
  +5.00000000000e+01
</indep>
<dep V1.I x>
  -3.00000000000e+00
  -2.11764705882e+00
  -1.63636363636e+00
  -1.33333333333e+00
  -1.12500000000e+00
  -9.72972972973e-01
  -8.57142857143e-01
  -7.65957446809e-01
  -6.92307692308e-01
  -6.31578947368e-01
</dep>
<dep _net1.V x>
  +1.50000000000e+01
  +2.11764705882e+01
  +2.45454545455e+01
  +2.66666666667e+01
  +2.81250000000e+01
  +2.91891891892e+01
  +3.00000000000e+01
  +3.06382978723e+01
  +3.11538461538e+01
  +3.15789473684e+01
</dep>
<dep _net0.V x>
  +3.60000000000e+01
  +3.60000000000e+01
  +3.60000000000e+01
  +3.60000000000e+01
  +3.60000000000e+01
  +3.60000000000e+01
  +3.60000000000e+01
  +3.60000000000e+01
  +3.60000000000e+01
  +3.60000000000e+01
</dep>
